
T0FFC 000:487 SEGGER J-Link V4.90 Log File (0019ms, 0292ms total)
T0FFC 000:487 DLL Compiled: Jul 28 2014 10:35:20 (0019ms, 0292ms total)
T0FFC 000:487 Logging started @ 2023-05-18 20:43 (0019ms, 0292ms total)
T0FFC 000:506 JLINK_SetWarnOutHandler(...) (0000ms, 0292ms total)
T0FFC 000:506 JLINK_OpenEx(...)
Firmware: J-Link ARM V8 compiled Nov 28 2014 13:44:46
Hardware: V8.00
Feature(s): RDI,FlashDL,FlashBP,JFlash,GDBFull  returns O.K. (0269ms, 0561ms total)
T0FFC 000:775 JLINK_SetErrorOutHandler(...) (0000ms, 0561ms total)
T0FFC 000:775 JLINK_ExecCommand("ProjectFile = "C:\Users\stl\Desktop\test\JLinkSettings.ini"", ...)  returns 0x00 (0000ms, 0561ms total)
T0FFC 000:775 JLINK_ExecCommand("Device = STM32F407ZG", ...)Device "STM32F407ZG" selected (1024 KB flash, 128 KB RAM).  returns 0x00 (0001ms, 0562ms total)
T0FFC 000:776 JLINK_ExecCommand("DisableConnectionTimeout", ...)  returns 0x01 (0000ms, 0562ms total)
T0FFC 000:776 JLINK_GetHardwareVersion()  returns 0x13880 (0000ms, 0562ms total)
T0FFC 000:776 JLINK_GetDLLVersion()  returns 49000 (0000ms, 0562ms total)
T0FFC 000:776 JLINK_GetFirmwareString(...) (0000ms, 0562ms total)
T0FFC 000:776 JLINK_GetDLLVersion()  returns 49000 (0000ms, 0562ms total)
T0FFC 000:776 JLINK_GetCompileDateTime() (0000ms, 0562ms total)
T0FFC 000:776 JLINK_GetFirmwareString(...) (0000ms, 0562ms total)
T0FFC 000:776 JLINK_GetHardwareVersion()  returns 0x13880 (0000ms, 0562ms total)
T0FFC 000:776 JLINK_TIF_Select(JLINKARM_TIF_JTAG)  returns 0x00 (0006ms, 0568ms total)
T0FFC 000:782 JLINK_SetSpeed(20000) (0001ms, 0569ms total)
T0FFC 000:783 JLINK_GetIdData(...) >0x2F8 JTAG>TotalIRLen = 9, IRPrint = 0x0011 >0x30 JTAG> >0x210 JTAG> >0x40 JTAG> >0x40 JTAG> >0x40 JTAG> >0x30 JTAG> >0x40 JTAG> >0x40 JTAG> >0x40 JTAG> >0x40 JTAG> >0x40 JTAG> >0x40 JTAG> >0x40 JTAG> >0x40 JTAG> >0x40 JTAG> >0x40 JTAG> >0x40 JTAG> >0x2F8 JTAG>TotalIRLen = 9, IRPrint = 0x0011 >0x30 JTAG> >0x210 JTAG> >0x70 JTAG> >0x40 JTAG> >0x40 JTAG> >0x40 JTAG> >0x50 JTAG> >0x80 JTAG> >0x40 JTAG> >0x30 JTAG> >0x40 JTAG> >0x40 JTAG> >0x30 JTAG> >0x40 JTAG>
 >0x50 JTAG>Found Cortex-M4 r0p1, Little endian. -- CPU_WriteMem(4 bytes @ 0xE0002000) -- CPU_ReadMem(4 bytes @ 0xE000EDF0) -- CPU_ReadMem(4 bytes @ 0xE0002000)FPUnit: 6 code (BP) slots and 2 literal slots -- CPU_ReadMem(4 bytes @ 0xE000EDFC) -- CPU_ReadMem(4 bytes @ 0xE0001000) -- CPU_WriteMem(4 bytes @ 0xE0001000) -- CPU_ReadMem(4 bytes @ 0xE00FF010)TPIU fitted. -- CPU_ReadMem(4 bytes @ 0xE00FF014)ETM fitted. -- CPU_ReadMem(4 bytes @ 0xE00FF018) ScanLen=9 NumDevices=2 aId[0]=0x4BA00477 aIrRead[0]=0
 aScanLen[0]=0 aScanRead[0]=0 (0052ms, 0621ms total)
T0FFC 000:835 JLINK_JTAG_GetDeviceID(DeviceIndex = 0)  returns 0x4BA00477 (0000ms, 0621ms total)
T0FFC 000:835 JLINK_JTAG_GetDeviceInfo(DeviceIndex = 0)  returns 0x00 (0000ms, 0621ms total)
T0FFC 000:835 JLINK_JTAG_GetDeviceID(DeviceIndex = 1)  returns 0x6413041 (0000ms, 0621ms total)
T0FFC 000:835 JLINK_JTAG_GetDeviceInfo(DeviceIndex = 1)  returns 0x00 (0000ms, 0621ms total)
T0FFC 000:835 JLINK_GetDLLVersion()  returns 49000 (0000ms, 0621ms total)
T0FFC 000:835 JLINK_CORE_GetFound()  returns 0xE0000FF (0000ms, 0621ms total)
T0FFC 000:835 JLINK_ReadMem (0xE00FF000, 0x0020 Bytes, ...) -- CPU is running -- CPU_ReadMem(32 bytes @ 0xE00FF000) - Data: 03 F0 F0 FF 03 20 F0 FF 03 30 F0 FF 03 10 F0 FF ...  returns 0x00 (0001ms, 0622ms total)
T0FFC 000:836 JLINK_ReadMem (0xE000EFF0, 0x0010 Bytes, ...) -- CPU is running -- CPU_ReadMem(16 bytes @ 0xE000EFF0) - Data: 0D 00 00 00 E0 00 00 00 05 00 00 00 B1 00 00 00  returns 0x00 (0001ms, 0623ms total)
T0FFC 000:837 JLINK_ReadMem (0xE000EFD0, 0x0020 Bytes, ...) -- CPU is running -- CPU_ReadMem(32 bytes @ 0xE000EFD0) - Data: 04 00 00 00 00 00 00 00 00 00 00 00 00 00 00 00 ...  returns 0x00 (0001ms, 0624ms total)
T0FFC 000:838 JLINK_ReadMem (0xE0001FF0, 0x0010 Bytes, ...) -- CPU is running -- CPU_ReadMem(16 bytes @ 0xE0001FF0) - Data: 0D 00 00 00 E0 00 00 00 05 00 00 00 B1 00 00 00  returns 0x00 (0001ms, 0625ms total)
T0FFC 000:839 JLINK_ReadMem (0xE0001FD0, 0x0020 Bytes, ...) -- CPU is running -- CPU_ReadMem(32 bytes @ 0xE0001FD0) - Data: 04 00 00 00 00 00 00 00 00 00 00 00 00 00 00 00 ...  returns 0x00 (0001ms, 0626ms total)
T0FFC 000:840 JLINK_ReadMem (0xE0002FF0, 0x0010 Bytes, ...) -- CPU is running -- CPU_ReadMem(16 bytes @ 0xE0002FF0) - Data: 0D 00 00 00 E0 00 00 00 05 00 00 00 B1 00 00 00  returns 0x00 (0001ms, 0627ms total)
T0FFC 000:841 JLINK_ReadMem (0xE0002FD0, 0x0020 Bytes, ...) -- CPU is running -- CPU_ReadMem(32 bytes @ 0xE0002FD0) - Data: 04 00 00 00 00 00 00 00 00 00 00 00 00 00 00 00 ...  returns 0x00 (0001ms, 0628ms total)
T0FFC 000:842 JLINK_ReadMem (0xE0000FF0, 0x0010 Bytes, ...) -- CPU is running -- CPU_ReadMem(16 bytes @ 0xE0000FF0) - Data: 0D 00 00 00 E0 00 00 00 05 00 00 00 B1 00 00 00  returns 0x00 (0001ms, 0629ms total)
T0FFC 000:843 JLINK_ReadMem (0xE0000FD0, 0x0020 Bytes, ...) -- CPU is running -- CPU_ReadMem(32 bytes @ 0xE0000FD0) - Data: 04 00 00 00 00 00 00 00 00 00 00 00 00 00 00 00 ...  returns 0x00 (0001ms, 0630ms total)
T0FFC 000:844 JLINK_ReadMem (0xE0040FF0, 0x0010 Bytes, ...) -- CPU is running -- CPU_ReadMem(16 bytes @ 0xE0040FF0) - Data: 0D 00 00 00 90 00 00 00 05 00 00 00 B1 00 00 00  returns 0x00 (0001ms, 0631ms total)
T0FFC 000:845 JLINK_ReadMem (0xE0040FD0, 0x0020 Bytes, ...) -- CPU is running -- CPU_ReadMem(32 bytes @ 0xE0040FD0) - Data: 04 00 00 00 00 00 00 00 00 00 00 00 00 00 00 00 ...  returns 0x00 (0001ms, 0632ms total)
T0FFC 000:846 JLINK_ReadMem (0xE0041FF0, 0x0010 Bytes, ...) -- CPU is running -- CPU_ReadMem(16 bytes @ 0xE0041FF0) - Data: 0D 00 00 00 90 00 00 00 05 00 00 00 B1 00 00 00  returns 0x00 (0001ms, 0633ms total)
T0FFC 000:847 JLINK_ReadMem (0xE0041FD0, 0x0020 Bytes, ...) -- CPU is running -- CPU_ReadMem(32 bytes @ 0xE0041FD0) - Data: 04 00 00 00 00 00 00 00 00 00 00 00 00 00 00 00 ...  returns 0x00 (0001ms, 0634ms total)
T0FFC 000:848 JLINK_ReadMemU32(0xE000EF40, 0x0001 Items, ...) -- CPU is running -- CPU_ReadMem(4 bytes @ 0xE000EF40) - Data: 21 00 11 10  returns 0x01 (0001ms, 0635ms total)
T0FFC 000:849 JLINK_ReadMemU32(0xE000EF44, 0x0001 Items, ...) -- CPU is running -- CPU_ReadMem(4 bytes @ 0xE000EF44) - Data: 11 00 00 11  returns 0x01 (0001ms, 0636ms total)
T0FFC 000:850 JLINK_ReadMemU32(0xE000ED00, 0x0001 Items, ...) -- CPU is running -- CPU_ReadMem(4 bytes @ 0xE000ED00) - Data: 41 C2 0F 41  returns 0x01 (0001ms, 0637ms total)
T0FFC 000:851 JLINK_SetResetType(JLINKARM_RESET_TYPE_NORMAL)  returns JLINKARM_RESET_TYPE_NORMAL (0000ms, 0637ms total)
T0FFC 000:851 JLINK_Reset() -- CPU is running -- CPU_WriteMem(4 bytes @ 0xE000EDF0) -- CPU is running -- CPU_WriteMem(4 bytes @ 0xE000EDFC) -- CPU is running -- CPU_WriteMem(4 bytes @ 0xE000ED0C) -- CPU is running -- CPU_ReadMem(4 bytes @ 0xE000EDF0) -- CPU is running -- CPU_ReadMem(4 bytes @ 0xE000EDF0) -- CPU is running -- CPU_WriteMem(4 bytes @ 0xE000EDF0) -- CPU is running -- CPU_WriteMem(4 bytes @ 0xE000EDFC) -- CPU is running -- CPU_ReadMem(4 bytes @ 0xE000EDF0) >0x80 JTAG> >0x40 JTAG> >0x30 JTAG>
 >0x40 JTAG> >0x50 JTAG> >0x40 JTAG> -- CPU_WriteMem(4 bytes @ 0xE000EDFC) -- CPU_WriteMem(4 bytes @ 0xE0001028) -- CPU_WriteMem(4 bytes @ 0xE0001038) -- CPU_WriteMem(4 bytes @ 0xE0001048) -- CPU_WriteMem(4 bytes @ 0xE0001058) -- CPU_WriteMem(4 bytes @ 0xE0002000) -- CPU_ReadMem(4 bytes @ 0xE000EDFC) -- CPU_ReadMem(4 bytes @ 0xE0001000) (0037ms, 0674ms total)
T0FFC 000:888 JLINK_ReadReg(R15 (PC))  returns 0x08000228 (0000ms, 0674ms total)
T0FFC 000:888 JLINK_ReadReg(XPSR)  returns 0x01000000 (0000ms, 0674ms total)
T0FFC 000:888 JLINK_Halt()  returns 0x00 (0000ms, 0674ms total)
T0FFC 000:888 JLINK_IsHalted()  returns TRUE (0000ms, 0674ms total)
T0FFC 000:888 JLINK_ReadMemU32(0xE000EDF0, 0x0001 Items, ...) -- CPU_ReadMem(4 bytes @ 0xE000EDF0) - Data: 03 00 03 00  returns 0x01 (0001ms, 0675ms total)
T0FFC 000:889 JLINK_WriteU32(0xE000EDF0, 0xA05F0003) -- CPU_WriteMem(4 bytes @ 0xE000EDF0)  returns 0x00 (0001ms, 0676ms total)
T0FFC 000:890 JLINK_WriteU32(0xE000EDFC, 0x01000000) -- CPU_WriteMem(4 bytes @ 0xE000EDFC)  returns 0x00 (0001ms, 0677ms total)
T0FFC 000:891 JLINK_GetHWStatus(...)  returns 0x00 (0001ms, 0678ms total)
T0FFC 000:892 JLINK_GetNumBPUnits(Type = 0xFFFFFF00)  returns 0x06 (0000ms, 0678ms total)
T0FFC 000:892 JLINK_GetNumBPUnits(Type = 0xF0)  returns 0x2000 (0000ms, 0678ms total)
T0FFC 000:892 JLINK_GetNumWPUnits()  returns 0x04 (0000ms, 0678ms total)
T0FFC 000:892 JLINK_GetSpeed()  returns 0x2580 (0000ms, 0678ms total)
T0FFC 000:892 JLINK_ReadMemU32(0xE000E004, 0x0001 Items, ...) -- CPU_ReadMem(4 bytes @ 0xE000E004) - Data: 02 00 00 00  returns 0x01 (0001ms, 0679ms total)
T0FFC 000:893 JLINK_ReadMemU32(0xE000E004, 0x0001 Items, ...) -- CPU_ReadMem(4 bytes @ 0xE000E004) - Data: 02 00 00 00  returns 0x01 (0001ms, 0680ms total)
T0FFC 000:894 JLINK_WriteMem(0xE0001000, 0x001C Bytes, ...) - Data: 01 00 00 00 00 00 00 00 00 00 00 00 00 00 00 00 ... -- CPU_WriteMem(28 bytes @ 0xE0001000)  returns 0x1C (0001ms, 0681ms total)
T0FFC 000:895 JLINK_ReadMem (0xE0001000, 0x001C Bytes, ...) -- CPU_ReadMem(28 bytes @ 0xE0001000) - Data: 01 00 00 40 00 00 00 00 00 00 00 00 00 00 00 00 ...  returns 0x00 (0001ms, 0682ms total)
T0FFC 000:896 JLINK_ReadReg(R15 (PC))  returns 0x08000228 (0000ms, 0682ms total)
T0FFC 000:896 JLINK_ReadReg(XPSR)  returns 0x01000000 (0000ms, 0682ms total)
T0FFC 000:953 JLINK_SetResetType(JLINKARM_RESET_TYPE_NORMAL)  returns JLINKARM_RESET_TYPE_NORMAL (0000ms, 0682ms total)
T0FFC 000:953 JLINK_Reset() -- CPU_WriteMem(4 bytes @ 0xE000EDF0) -- CPU_WriteMem(4 bytes @ 0xE000EDFC) -- CPU_WriteMem(4 bytes @ 0xE000ED0C) -- CPU_ReadMem(4 bytes @ 0xE000EDF0) -- CPU_ReadMem(4 bytes @ 0xE000EDF0) -- CPU_WriteMem(4 bytes @ 0xE000EDF0) -- CPU_WriteMem(4 bytes @ 0xE000EDFC) -- CPU is running -- CPU_ReadMem(4 bytes @ 0xE000EDF0) >0x80 JTAG> >0x40 JTAG> >0x30 JTAG> >0x40 JTAG> >0x50 JTAG> >0x40 JTAG> -- CPU_WriteMem(4 bytes @ 0xE000EDFC) -- CPU_WriteMem(4 bytes @ 0xE0001028)
 -- CPU_WriteMem(4 bytes @ 0xE0001038) -- CPU_WriteMem(4 bytes @ 0xE0001048) -- CPU_WriteMem(4 bytes @ 0xE0001058) -- CPU_WriteMem(4 bytes @ 0xE0002000) -- CPU_ReadMem(4 bytes @ 0xE000EDFC) -- CPU_ReadMem(4 bytes @ 0xE0001000) (0038ms, 0720ms total)
T0FFC 000:991 JLINK_ReadReg(R15 (PC))  returns 0x08000228 (0000ms, 0720ms total)
T0FFC 000:991 JLINK_ReadReg(XPSR)  returns 0x01000000 (0000ms, 0720ms total)
T0FFC 000:991 JLINK_ReadMem (0x08000188, 0x003C Bytes, ...) -- CPU_ReadMem(128 bytes @ 0x08000180) -- Updating C cache (128 bytes @ 0x08000180) -- Read from C cache (60 bytes @ 0x08000188) - Data: 00 F0 02 F8 00 F0 3C F8 0A A0 90 E8 00 0C 82 44 ...  returns 0x00 (0002ms, 0722ms total)
T0FFC 000:993 JLINK_ReadMem (0x080001C4, 0x003C Bytes, ...) -- Read from C cache (60 bytes @ 0x080001C4) - Data: 10 3A 24 BF 78 C8 78 C1 FA D8 52 07 24 BF 30 C8 ...  returns 0x00 (0000ms, 0722ms total)
T0FFC 000:993 JLINK_ReadMem (0x08000200, 0x003C Bytes, ...) -- CPU_ReadMem(64 bytes @ 0x08000200) -- Updating C cache (64 bytes @ 0x08000200) -- Read from C cache (60 bytes @ 0x08000200) - Data: 80 F9 1F BD 10 B5 10 BD 00 F0 31 F8 11 46 FF F7 ...  returns 0x00 (0001ms, 0723ms total)
T1250 001:534 JLINK_SetBPEx(Addr = 0x08000430, Type = 0xFFFFFFF2)  returns 0x00000001 (0002ms, 0725ms total)
T1250 001:536 JLINK_SetBPEx(Addr = 0x080004B8, Type = 0xFFFFFFF2)  returns 0x00000002 (0000ms, 0725ms total)
T1250 001:536 JLINK_SetBPEx(Addr = 0x080004A8, Type = 0xFFFFFFF2)  returns 0x00000003 (0000ms, 0725ms total)
T1250 001:536 JLINK_SetBPEx(Addr = 0x08000498, Type = 0xFFFFFFF2)  returns 0x00000004 (0000ms, 0725ms total)
T1250 001:536 JLINK_Go() -- CPU_WriteMem(4 bytes @ 0xE0002008) -- CPU_WriteMem(4 bytes @ 0xE000200C) -- CPU_WriteMem(4 bytes @ 0xE0002010) -- CPU_WriteMem(4 bytes @ 0xE0002014) -- CPU_WriteMem(4 bytes @ 0xE0002018) -- CPU_WriteMem(4 bytes @ 0xE000201C) -- CPU_WriteMem(4 bytes @ 0xE0001004) (0009ms, 0734ms total)
T1250 001:645 JLINK_IsHalted()  returns TRUE (0003ms, 0737ms total)
T1250 001:648 JLINK_Halt()  returns 0x00 (0000ms, 0734ms total)
T1250 001:648 JLINK_IsHalted()  returns TRUE (0000ms, 0734ms total)
T1250 001:648 JLINK_IsHalted()  returns TRUE (0000ms, 0734ms total)
T1250 001:648 JLINK_IsHalted()  returns TRUE (0000ms, 0734ms total)
T1250 001:648 JLINK_ReadReg(R15 (PC))  returns 0x08000430 (0000ms, 0734ms total)
T1250 001:648 JLINK_ReadReg(XPSR)  returns 0x21000000 (0000ms, 0734ms total)
T1250 001:648 JLINK_ClrBPEx(BPHandle = 0x00000001)  returns 0x00 (0000ms, 0734ms total)
T1250 001:648 JLINK_ClrBPEx(BPHandle = 0x00000002)  returns 0x00 (0000ms, 0734ms total)
T1250 001:648 JLINK_ClrBPEx(BPHandle = 0x00000003)  returns 0x00 (0000ms, 0734ms total)
T1250 001:648 JLINK_ClrBPEx(BPHandle = 0x00000004)  returns 0x00 (0000ms, 0734ms total)
T1250 001:648 JLINK_ReadMemU32(0xE000ED30, 0x0001 Items, ...) -- CPU_ReadMem(4 bytes @ 0xE000ED30) - Data: 03 00 00 00  returns 0x01 (0001ms, 0735ms total)
T1250 001:649 JLINK_ReadMemU32(0xE0001028, 0x0001 Items, ...) -- CPU_ReadMem(4 bytes @ 0xE0001028) - Data: 00 00 00 00  returns 0x01 (0001ms, 0736ms total)
T1250 001:650 JLINK_ReadMemU32(0xE0001038, 0x0001 Items, ...) -- CPU_ReadMem(4 bytes @ 0xE0001038) - Data: 00 02 00 00  returns 0x01 (0001ms, 0737ms total)
T1250 001:651 JLINK_ReadMemU32(0xE0001048, 0x0001 Items, ...) -- CPU_ReadMem(4 bytes @ 0xE0001048) - Data: 00 00 00 00  returns 0x01 (0001ms, 0738ms total)
T1250 001:652 JLINK_ReadMemU32(0xE0001058, 0x0001 Items, ...) -- CPU_ReadMem(4 bytes @ 0xE0001058) - Data: 00 00 00 00  returns 0x01 (0001ms, 0739ms total)
T1250 001:653 JLINK_ReadReg(R0)  returns 0x20000090 (0000ms, 0739ms total)
T1250 001:653 JLINK_ReadReg(R1)  returns 0x20000290 (0000ms, 0739ms total)
T1250 001:653 JLINK_ReadReg(R2)  returns 0x20000290 (0000ms, 0739ms total)
T1250 001:653 JLINK_ReadReg(R3)  returns 0x20000290 (0000ms, 0739ms total)
T1250 001:653 JLINK_ReadReg(R4)  returns 0x00000000 (0000ms, 0739ms total)
T1250 001:653 JLINK_ReadReg(R5)  returns 0x2000002C (0000ms, 0739ms total)
T1250 001:653 JLINK_ReadReg(R6)  returns 0x00000000 (0000ms, 0739ms total)
T1250 001:653 JLINK_ReadReg(R7)  returns 0x00000000 (0000ms, 0739ms total)
T1250 001:653 JLINK_ReadReg(R8)  returns 0x00000000 (0000ms, 0739ms total)
T1250 001:653 JLINK_ReadReg(R9)  returns 0x00000000 (0000ms, 0739ms total)
T1250 001:653 JLINK_ReadReg(R10)  returns 0x0800052C (0000ms, 0739ms total)
T1250 001:653 JLINK_ReadReg(R11)  returns 0x00000000 (0000ms, 0739ms total)
T1250 001:653 JLINK_ReadReg(R12)  returns 0x2000006C (0000ms, 0739ms total)
T1250 001:653 JLINK_ReadReg(R13 (SP))  returns 0x20000690 (0000ms, 0739ms total)
T1250 001:653 JLINK_ReadReg(R14)  returns 0x08000217 (0000ms, 0739ms total)
T1250 001:653 JLINK_ReadReg(R15 (PC))  returns 0x08000430 (0000ms, 0739ms total)
T1250 001:653 JLINK_ReadReg(XPSR)  returns 0x21000000 (0000ms, 0739ms total)
T1250 001:653 JLINK_ReadReg(MSP)  returns 0x20000690 (0000ms, 0739ms total)
T1250 001:653 JLINK_ReadReg(PSP)  returns 0x00000000 (0000ms, 0739ms total)
T1250 001:653 JLINK_ReadReg(CFBP)  returns 0x04000000 (0000ms, 0739ms total)
T1250 001:653 JLINK_ReadReg(FPSCR)  returns 0x03000000 (0004ms, 0743ms total)
T1250 001:657 JLINK_ReadReg(FPS0)  returns 0x00000000 (0000ms, 0743ms total)
T1250 001:657 JLINK_ReadReg(FPS1)  returns 0x00000000 (0000ms, 0743ms total)
T1250 001:657 JLINK_ReadReg(FPS2)  returns 0x00000000 (0000ms, 0743ms total)
T1250 001:657 JLINK_ReadReg(FPS3)  returns 0x00000000 (0000ms, 0743ms total)
T1250 001:657 JLINK_ReadReg(FPS4)  returns 0x00000000 (0000ms, 0743ms total)
T1250 001:657 JLINK_ReadReg(FPS5)  returns 0x00000000 (0000ms, 0743ms total)
T1250 001:657 JLINK_ReadReg(FPS6)  returns 0x00000000 (0000ms, 0743ms total)
T1250 001:657 JLINK_ReadReg(FPS7)  returns 0x00000000 (0000ms, 0743ms total)
T1250 001:657 JLINK_ReadReg(FPS8)  returns 0x00000000 (0000ms, 0743ms total)
T1250 001:657 JLINK_ReadReg(FPS9)  returns 0x00000000 (0000ms, 0743ms total)
T1250 001:657 JLINK_ReadReg(FPS10)  returns 0x00000000 (0000ms, 0743ms total)
T1250 001:657 JLINK_ReadReg(FPS11)  returns 0x00000000 (0000ms, 0743ms total)
T1250 001:657 JLINK_ReadReg(FPS12)  returns 0x00000000 (0000ms, 0743ms total)
T1250 001:657 JLINK_ReadReg(FPS13)  returns 0x00000000 (0000ms, 0743ms total)
T1250 001:657 JLINK_ReadReg(FPS14)  returns 0x00000000 (0000ms, 0743ms total)
T1250 001:657 JLINK_ReadReg(FPS15)  returns 0x00000000 (0000ms, 0743ms total)
T1250 001:657 JLINK_ReadReg(FPS16)  returns 0x00000000 (0000ms, 0743ms total)
T1250 001:657 JLINK_ReadReg(FPS17)  returns 0x00000000 (0000ms, 0743ms total)
T1250 001:657 JLINK_ReadReg(FPS18)  returns 0x00000000 (0000ms, 0743ms total)
T1250 001:657 JLINK_ReadReg(FPS19)  returns 0x00000000 (0000ms, 0743ms total)
T1250 001:657 JLINK_ReadReg(FPS20)  returns 0x00000000 (0000ms, 0743ms total)
T1250 001:657 JLINK_ReadReg(FPS21)  returns 0x00000000 (0000ms, 0743ms total)
T1250 001:657 JLINK_ReadReg(FPS22)  returns 0x00000000 (0000ms, 0743ms total)
T1250 001:657 JLINK_ReadReg(FPS23)  returns 0x00000000 (0000ms, 0743ms total)
T1250 001:657 JLINK_ReadReg(FPS24)  returns 0x00000000 (0001ms, 0744ms total)
T1250 001:658 JLINK_ReadReg(FPS25)  returns 0x00000000 (0000ms, 0744ms total)
T1250 001:658 JLINK_ReadReg(FPS26)  returns 0x00000000 (0000ms, 0744ms total)
T1250 001:658 JLINK_ReadReg(FPS27)  returns 0x00000000 (0000ms, 0744ms total)
T1250 001:658 JLINK_ReadReg(FPS28)  returns 0x00000000 (0000ms, 0744ms total)
T1250 001:658 JLINK_ReadReg(FPS29)  returns 0x00000000 (0000ms, 0744ms total)
T1250 001:658 JLINK_ReadReg(FPS30)  returns 0x00000000 (0000ms, 0744ms total)
T1250 001:658 JLINK_ReadReg(FPS31)  returns 0x00000000 (0000ms, 0744ms total)
T0FFC 001:658 JLINK_ReadMem (0x20000000, 0x0004 Bytes, ...) -- CPU_ReadMem(64 bytes @ 0x20000000) -- Updating C cache (64 bytes @ 0x20000000) -- Read from C cache (4 bytes @ 0x20000000) - Data: 00 00 00 00  returns 0x00 (0001ms, 0745ms total)
T0FFC 001:659 JLINK_ReadMem (0x20000004, 0x0002 Bytes, ...) -- Read from C cache (2 bytes @ 0x20000004) - Data: 00 00  returns 0x00 (0000ms, 0745ms total)
T0FFC 001:659 JLINK_ReadMem (0x20000008, 0x0004 Bytes, ...) -- Read from C cache (4 bytes @ 0x20000008) - Data: 00 00 00 00  returns 0x00 (0000ms, 0745ms total)
T0FFC 001:663 JLINK_ReadMemU32(0xE0001004, 0x0001 Items, ...) -- CPU_ReadMem(4 bytes @ 0xE0001004) - Data: EF 3A 00 00  returns 0x01 (0002ms, 0747ms total)
T0FFC 001:668 JLINK_ReadMem (0x08000330, 0x003C Bytes, ...) -- CPU_ReadMem(128 bytes @ 0x08000300) -- Updating C cache (128 bytes @ 0x08000300) -- Read from C cache (60 bytes @ 0x08000330) - Data: 80 50 21 49 40 31 08 60 20 48 00 68 40 F4 40 40 ...  returns 0x00 (0001ms, 0748ms total)
T0FFC 001:669 JLINK_ReadMem (0x0800036C, 0x003C Bytes, ...) -- CPU_ReadMem(64 bytes @ 0x08000380) -- Updating C cache (64 bytes @ 0x08000380) -- Read from C cache (60 bytes @ 0x0800036C) - Data: 00 68 40 F0 80 70 09 1F 08 60 00 BF 0F 48 00 68 ...  returns 0x00 (0001ms, 0749ms total)
T0FFC 001:670 JLINK_ReadMem (0x080003A8, 0x003C Bytes, ...) -- CPU_ReadMem(64 bytes @ 0x080003C0) -- Updating C cache (64 bytes @ 0x080003C0) -- Read from C cache (60 bytes @ 0x080003A8) - Data: 03 48 08 30 00 68 00 F0 0C 00 08 28 F8 D1 0C BD ...  returns 0x00 (0001ms, 0750ms total)
T0FFC 001:671 JLINK_ReadMem (0x080003E4, 0x001C Bytes, ...) -- Read from C cache (28 bytes @ 0x080003E4) - Data: 0F 49 08 31 08 60 0E 48 00 68 0E 49 08 40 0C 49 ...  returns 0x00 (0000ms, 0750ms total)
T0FFC 001:671 JLINK_ReadMem (0x08000400, 0x0020 Bytes, ...) -- CPU_ReadMem(64 bytes @ 0x08000400) -- Updating C cache (64 bytes @ 0x08000400) -- Read from C cache (32 bytes @ 0x08000400) - Data: 20 F4 80 20 09 1F 08 60 00 20 06 49 0C 31 08 60 ...  returns 0x00 (0001ms, 0751ms total)
T0FFC 001:672 JLINK_ReadMem (0x08000420, 0x003C Bytes, ...) -- CPU_ReadMem(64 bytes @ 0x08000440) -- Updating C cache (64 bytes @ 0x08000440) -- Read from C cache (60 bytes @ 0x08000420) - Data: 88 ED 00 E0 00 38 02 40 FF FF F6 FE 10 30 00 24 ...  returns 0x00 (0001ms, 0752ms total)
T0FFC 001:682 JLINK_ReadMem (0x080004C0, 0x003C Bytes, ...) -- CPU_ReadMem(64 bytes @ 0x080004C0) -- Updating C cache (64 bytes @ 0x080004C0) -- Read from C cache (60 bytes @ 0x080004C0) - Data: 00 BF EF F3 03 80 81 46 00 BF EF F3 08 80 81 46 ...  returns 0x00 (0002ms, 0754ms total)
T1250 010:615 JLINK_Step() -- Read from C cache (2 bytes @ 0x08000430) -- Read from C cache (2 bytes @ 0x08000432) -- Not simulated -- CPU_WriteMem(4 bytes @ 0xE0002008) -- CPU_WriteMem(4 bytes @ 0xE000200C) -- CPU_WriteMem(4 bytes @ 0xE0002010) -- CPU_WriteMem(4 bytes @ 0xE0002014)  returns 0x00 (0011ms, 0765ms total)
T1250 010:626 JLINK_ReadReg(R15 (PC))  returns 0x08000434 (0000ms, 0765ms total)
T1250 010:626 JLINK_ReadReg(XPSR)  returns 0x21000000 (0000ms, 0765ms total)
T1250 010:626 JLINK_ReadReg(R0)  returns 0x20000090 (0000ms, 0765ms total)
T1250 010:626 JLINK_ReadReg(R1)  returns 0x20000290 (0000ms, 0765ms total)
T1250 010:626 JLINK_ReadReg(R2)  returns 0x20000290 (0000ms, 0765ms total)
T1250 010:626 JLINK_ReadReg(R3)  returns 0x20000290 (0000ms, 0765ms total)
T1250 010:626 JLINK_ReadReg(R4)  returns 0x00000000 (0000ms, 0765ms total)
T1250 010:626 JLINK_ReadReg(R5)  returns 0x2000002C (0000ms, 0765ms total)
T1250 010:626 JLINK_ReadReg(R6)  returns 0x00000000 (0000ms, 0765ms total)
T1250 010:626 JLINK_ReadReg(R7)  returns 0x00000000 (0000ms, 0765ms total)
T1250 010:626 JLINK_ReadReg(R8)  returns 0x00000000 (0000ms, 0765ms total)
T1250 010:626 JLINK_ReadReg(R9)  returns 0x00000000 (0000ms, 0765ms total)
T1250 010:626 JLINK_ReadReg(R10)  returns 0x0800052C (0000ms, 0765ms total)
T1250 010:626 JLINK_ReadReg(R11)  returns 0x00000000 (0000ms, 0765ms total)
T1250 010:626 JLINK_ReadReg(R12)  returns 0x2000006C (0000ms, 0765ms total)
T1250 010:626 JLINK_ReadReg(R13 (SP))  returns 0x20000674 (0000ms, 0765ms total)
T1250 010:626 JLINK_ReadReg(R14)  returns 0x08000217 (0000ms, 0765ms total)
T1250 010:626 JLINK_ReadReg(R15 (PC))  returns 0x08000434 (0000ms, 0765ms total)
T1250 010:626 JLINK_ReadReg(XPSR)  returns 0x21000000 (0000ms, 0765ms total)
T1250 010:626 JLINK_ReadReg(MSP)  returns 0x20000674 (0000ms, 0765ms total)
T1250 010:626 JLINK_ReadReg(PSP)  returns 0x00000000 (0000ms, 0765ms total)
T1250 010:626 JLINK_ReadReg(CFBP)  returns 0x04000000 (0000ms, 0765ms total)
T1250 010:626 JLINK_ReadReg(FPSCR)  returns 0x03000000 (0004ms, 0769ms total)
T1250 010:630 JLINK_ReadReg(FPS0)  returns 0x00000000 (0000ms, 0769ms total)
T1250 010:630 JLINK_ReadReg(FPS1)  returns 0x00000000 (0000ms, 0769ms total)
T1250 010:630 JLINK_ReadReg(FPS2)  returns 0x00000000 (0000ms, 0769ms total)
T1250 010:630 JLINK_ReadReg(FPS3)  returns 0x00000000 (0000ms, 0769ms total)
T1250 010:630 JLINK_ReadReg(FPS4)  returns 0x00000000 (0000ms, 0769ms total)
T1250 010:630 JLINK_ReadReg(FPS5)  returns 0x00000000 (0000ms, 0769ms total)
T1250 010:630 JLINK_ReadReg(FPS6)  returns 0x00000000 (0000ms, 0769ms total)
T1250 010:630 JLINK_ReadReg(FPS7)  returns 0x00000000 (0000ms, 0769ms total)
T1250 010:630 JLINK_ReadReg(FPS8)  returns 0x00000000 (0000ms, 0769ms total)
T1250 010:630 JLINK_ReadReg(FPS9)  returns 0x00000000 (0000ms, 0769ms total)
T1250 010:630 JLINK_ReadReg(FPS10)  returns 0x00000000 (0000ms, 0769ms total)
T1250 010:630 JLINK_ReadReg(FPS11)  returns 0x00000000 (0000ms, 0769ms total)
T1250 010:630 JLINK_ReadReg(FPS12)  returns 0x00000000 (0000ms, 0769ms total)
T1250 010:630 JLINK_ReadReg(FPS13)  returns 0x00000000 (0000ms, 0769ms total)
T1250 010:630 JLINK_ReadReg(FPS14)  returns 0x00000000 (0000ms, 0769ms total)
T1250 010:630 JLINK_ReadReg(FPS15)  returns 0x00000000 (0000ms, 0769ms total)
T1250 010:630 JLINK_ReadReg(FPS16)  returns 0x00000000 (0000ms, 0769ms total)
T1250 010:630 JLINK_ReadReg(FPS17)  returns 0x00000000 (0000ms, 0769ms total)
T1250 010:630 JLINK_ReadReg(FPS18)  returns 0x00000000 (0000ms, 0769ms total)
T1250 010:630 JLINK_ReadReg(FPS19)  returns 0x00000000 (0000ms, 0769ms total)
T1250 010:630 JLINK_ReadReg(FPS20)  returns 0x00000000 (0000ms, 0769ms total)
T1250 010:630 JLINK_ReadReg(FPS21)  returns 0x00000000 (0000ms, 0769ms total)
T1250 010:630 JLINK_ReadReg(FPS22)  returns 0x00000000 (0000ms, 0769ms total)
T1250 010:630 JLINK_ReadReg(FPS23)  returns 0x00000000 (0000ms, 0769ms total)
T1250 010:630 JLINK_ReadReg(FPS24)  returns 0x00000000 (0000ms, 0769ms total)
T1250 010:630 JLINK_ReadReg(FPS25)  returns 0x00000000 (0000ms, 0769ms total)
T1250 010:630 JLINK_ReadReg(FPS26)  returns 0x00000000 (0000ms, 0769ms total)
T1250 010:630 JLINK_ReadReg(FPS27)  returns 0x00000000 (0000ms, 0769ms total)
T1250 010:630 JLINK_ReadReg(FPS28)  returns 0x00000000 (0000ms, 0769ms total)
T1250 010:630 JLINK_ReadReg(FPS29)  returns 0x00000000 (0000ms, 0769ms total)
T1250 010:630 JLINK_ReadReg(FPS30)  returns 0x00000000 (0000ms, 0769ms total)
T1250 010:630 JLINK_ReadReg(FPS31)  returns 0x00000000 (0000ms, 0769ms total)
T0FFC 010:632 JLINK_ReadMem (0x2000068C, 0x0004 Bytes, ...) -- CPU_ReadMem(64 bytes @ 0x20000680) -- Updating C cache (64 bytes @ 0x20000680) -- Read from C cache (4 bytes @ 0x2000068C) - Data: 17 02 00 08  returns 0x00 (0001ms, 0770ms total)
T0FFC 010:633 JLINK_ReadMem (0x20000000, 0x0004 Bytes, ...) -- CPU_ReadMem(64 bytes @ 0x20000000) -- Updating C cache (64 bytes @ 0x20000000) -- Read from C cache (4 bytes @ 0x20000000) - Data: 00 00 00 00  returns 0x00 (0001ms, 0771ms total)
T0FFC 010:634 JLINK_ReadMem (0x20000004, 0x0002 Bytes, ...) -- Read from C cache (2 bytes @ 0x20000004) - Data: 00 00  returns 0x00 (0000ms, 0771ms total)
T0FFC 010:634 JLINK_ReadMem (0x20000008, 0x0004 Bytes, ...) -- Read from C cache (4 bytes @ 0x20000008) - Data: 00 00 00 00  returns 0x00 (0000ms, 0771ms total)
T0FFC 010:634 JLINK_ReadMemU32(0xE0001004, 0x0001 Items, ...) -- CPU_ReadMem(4 bytes @ 0xE0001004) - Data: F7 3A 00 00  returns 0x01 (0001ms, 0772ms total)
T0FFC 010:640 JLINK_ReadMem (0x08000430, 0x003C Bytes, ...) -- CPU_ReadMem(128 bytes @ 0x08000400) -- Updating C cache (128 bytes @ 0x08000400) -- Read from C cache (60 bytes @ 0x08000430) - Data: 2D E9 F0 43 4F F0 78 08 01 25 02 26 FF 27 AF 1B ...  returns 0x00 (0001ms, 0773ms total)
T1250 011:271 JLINK_Step() -- Read from C cache (2 bytes @ 0x08000434) -- Read from C cache (2 bytes @ 0x08000436) -- Simulated  returns 0x00 (0001ms, 0774ms total)
T1250 011:272 JLINK_ReadReg(R15 (PC))  returns 0x08000438 (0000ms, 0774ms total)
T1250 011:272 JLINK_ReadReg(XPSR)  returns 0x21000000 (0000ms, 0774ms total)
T1250 011:272 JLINK_ReadReg(R0)  returns 0x20000090 (0000ms, 0774ms total)
T1250 011:272 JLINK_ReadReg(R1)  returns 0x20000290 (0000ms, 0774ms total)
T1250 011:272 JLINK_ReadReg(R2)  returns 0x20000290 (0000ms, 0774ms total)
T1250 011:272 JLINK_ReadReg(R3)  returns 0x20000290 (0000ms, 0774ms total)
T1250 011:272 JLINK_ReadReg(R4)  returns 0x00000000 (0000ms, 0774ms total)
T1250 011:272 JLINK_ReadReg(R5)  returns 0x2000002C (0000ms, 0774ms total)
T1250 011:272 JLINK_ReadReg(R6)  returns 0x00000000 (0000ms, 0774ms total)
T1250 011:272 JLINK_ReadReg(R7)  returns 0x00000000 (0000ms, 0774ms total)
T1250 011:272 JLINK_ReadReg(R8)  returns 0x00000078 (0000ms, 0774ms total)
T1250 011:272 JLINK_ReadReg(R9)  returns 0x00000000 (0000ms, 0774ms total)
T1250 011:272 JLINK_ReadReg(R10)  returns 0x0800052C (0000ms, 0774ms total)
T1250 011:272 JLINK_ReadReg(R11)  returns 0x00000000 (0000ms, 0774ms total)
T1250 011:272 JLINK_ReadReg(R12)  returns 0x2000006C (0000ms, 0774ms total)
T1250 011:272 JLINK_ReadReg(R13 (SP))  returns 0x20000674 (0000ms, 0774ms total)
T1250 011:272 JLINK_ReadReg(R14)  returns 0x08000217 (0000ms, 0774ms total)
T1250 011:272 JLINK_ReadReg(R15 (PC))  returns 0x08000438 (0000ms, 0774ms total)
T1250 011:272 JLINK_ReadReg(XPSR)  returns 0x21000000 (0000ms, 0774ms total)
T1250 011:272 JLINK_ReadReg(MSP)  returns 0x20000674 (0000ms, 0774ms total)
T1250 011:272 JLINK_ReadReg(PSP)  returns 0x00000000 (0000ms, 0774ms total)
T1250 011:272 JLINK_ReadReg(CFBP)  returns 0x04000000 (0000ms, 0774ms total)
T1250 011:272 JLINK_ReadReg(FPSCR)  returns 0x03000000 (0000ms, 0774ms total)
T1250 011:272 JLINK_ReadReg(FPS0)  returns 0x00000000 (0000ms, 0774ms total)
T1250 011:272 JLINK_ReadReg(FPS1)  returns 0x00000000 (0000ms, 0774ms total)
T1250 011:272 JLINK_ReadReg(FPS2)  returns 0x00000000 (0000ms, 0774ms total)
T1250 011:272 JLINK_ReadReg(FPS3)  returns 0x00000000 (0000ms, 0774ms total)
T1250 011:272 JLINK_ReadReg(FPS4)  returns 0x00000000 (0000ms, 0774ms total)
T1250 011:272 JLINK_ReadReg(FPS5)  returns 0x00000000 (0000ms, 0774ms total)
T1250 011:272 JLINK_ReadReg(FPS6)  returns 0x00000000 (0000ms, 0774ms total)
T1250 011:272 JLINK_ReadReg(FPS7)  returns 0x00000000 (0000ms, 0774ms total)
T1250 011:272 JLINK_ReadReg(FPS8)  returns 0x00000000 (0000ms, 0774ms total)
T1250 011:272 JLINK_ReadReg(FPS9)  returns 0x00000000 (0000ms, 0774ms total)
T1250 011:272 JLINK_ReadReg(FPS10)  returns 0x00000000 (0000ms, 0774ms total)
T1250 011:272 JLINK_ReadReg(FPS11)  returns 0x00000000 (0000ms, 0774ms total)
T1250 011:273 JLINK_ReadReg(FPS12)  returns 0x00000000 (0000ms, 0774ms total)
T1250 011:273 JLINK_ReadReg(FPS13)  returns 0x00000000 (0000ms, 0774ms total)
T1250 011:273 JLINK_ReadReg(FPS14)  returns 0x00000000 (0000ms, 0774ms total)
T1250 011:273 JLINK_ReadReg(FPS15)  returns 0x00000000 (0000ms, 0774ms total)
T1250 011:273 JLINK_ReadReg(FPS16)  returns 0x00000000 (0000ms, 0774ms total)
T1250 011:273 JLINK_ReadReg(FPS17)  returns 0x00000000 (0000ms, 0774ms total)
T1250 011:273 JLINK_ReadReg(FPS18)  returns 0x00000000 (0000ms, 0774ms total)
T1250 011:273 JLINK_ReadReg(FPS19)  returns 0x00000000 (0000ms, 0774ms total)
T1250 011:273 JLINK_ReadReg(FPS20)  returns 0x00000000 (0000ms, 0774ms total)
T1250 011:273 JLINK_ReadReg(FPS21)  returns 0x00000000 (0000ms, 0774ms total)
T1250 011:273 JLINK_ReadReg(FPS22)  returns 0x00000000 (0000ms, 0774ms total)
T1250 011:273 JLINK_ReadReg(FPS23)  returns 0x00000000 (0000ms, 0774ms total)
T1250 011:273 JLINK_ReadReg(FPS24)  returns 0x00000000 (0000ms, 0774ms total)
T1250 011:273 JLINK_ReadReg(FPS25)  returns 0x00000000 (0000ms, 0774ms total)
T1250 011:273 JLINK_ReadReg(FPS26)  returns 0x00000000 (0000ms, 0774ms total)
T1250 011:273 JLINK_ReadReg(FPS27)  returns 0x00000000 (0000ms, 0774ms total)
T1250 011:273 JLINK_ReadReg(FPS28)  returns 0x00000000 (0000ms, 0774ms total)
T1250 011:273 JLINK_ReadReg(FPS29)  returns 0x00000000 (0000ms, 0774ms total)
T1250 011:273 JLINK_ReadReg(FPS30)  returns 0x00000000 (0000ms, 0774ms total)
T1250 011:273 JLINK_ReadReg(FPS31)  returns 0x00000000 (0000ms, 0774ms total)
T0FFC 011:273 JLINK_ReadMem (0x2000068C, 0x0004 Bytes, ...) -- Read from C cache (4 bytes @ 0x2000068C) - Data: 17 02 00 08  returns 0x00 (0000ms, 0774ms total)
T0FFC 011:273 JLINK_ReadMem (0x20000000, 0x0004 Bytes, ...) -- Read from C cache (4 bytes @ 0x20000000) - Data: 00 00 00 00  returns 0x00 (0000ms, 0774ms total)
T0FFC 011:273 JLINK_ReadMem (0x20000004, 0x0002 Bytes, ...) -- Read from C cache (2 bytes @ 0x20000004) - Data: 00 00  returns 0x00 (0000ms, 0774ms total)
T0FFC 011:273 JLINK_ReadMem (0x20000008, 0x0004 Bytes, ...) -- Read from C cache (4 bytes @ 0x20000008) - Data: 00 00 00 00  returns 0x00 (0001ms, 0775ms total)
T0FFC 011:274 JLINK_ReadMemU32(0xE0001004, 0x0001 Items, ...) - Data: F7 3A 00 00  returns 0x01 (0000ms, 0775ms total)
T0FFC 011:277 JLINK_ReadMem (0x08000430, 0x003C Bytes, ...) -- Read from C cache (60 bytes @ 0x08000430) - Data: 2D E9 F0 43 4F F0 78 08 01 25 02 26 FF 27 AF 1B ...  returns 0x00 (0000ms, 0775ms total)
T1250 011:790 JLINK_Step() -- Read from C cache (2 bytes @ 0x08000438) -- Simulated  returns 0x00 (0002ms, 0777ms total)
T1250 011:792 JLINK_ReadReg(R15 (PC))  returns 0x0800043A (0000ms, 0777ms total)
T1250 011:792 JLINK_ReadReg(XPSR)  returns 0x21000000 (0000ms, 0777ms total)
T1250 011:792 JLINK_ReadReg(R0)  returns 0x20000090 (0000ms, 0777ms total)
T1250 011:792 JLINK_ReadReg(R1)  returns 0x20000290 (0000ms, 0777ms total)
T1250 011:792 JLINK_ReadReg(R2)  returns 0x20000290 (0000ms, 0777ms total)
T1250 011:792 JLINK_ReadReg(R3)  returns 0x20000290 (0000ms, 0777ms total)
T1250 011:792 JLINK_ReadReg(R4)  returns 0x00000000 (0000ms, 0777ms total)
T1250 011:792 JLINK_ReadReg(R5)  returns 0x00000001 (0000ms, 0777ms total)
T1250 011:792 JLINK_ReadReg(R6)  returns 0x00000000 (0000ms, 0777ms total)
T1250 011:792 JLINK_ReadReg(R7)  returns 0x00000000 (0000ms, 0777ms total)
T1250 011:792 JLINK_ReadReg(R8)  returns 0x00000078 (0000ms, 0777ms total)
T1250 011:792 JLINK_ReadReg(R9)  returns 0x00000000 (0000ms, 0777ms total)
T1250 011:792 JLINK_ReadReg(R10)  returns 0x0800052C (0000ms, 0777ms total)
T1250 011:792 JLINK_ReadReg(R11)  returns 0x00000000 (0000ms, 0777ms total)
T1250 011:792 JLINK_ReadReg(R12)  returns 0x2000006C (0000ms, 0777ms total)
T1250 011:792 JLINK_ReadReg(R13 (SP))  returns 0x20000674 (0000ms, 0777ms total)
T1250 011:792 JLINK_ReadReg(R14)  returns 0x08000217 (0000ms, 0777ms total)
T1250 011:792 JLINK_ReadReg(R15 (PC))  returns 0x0800043A (0000ms, 0777ms total)
T1250 011:792 JLINK_ReadReg(XPSR)  returns 0x21000000 (0000ms, 0777ms total)
T1250 011:792 JLINK_ReadReg(MSP)  returns 0x20000674 (0000ms, 0777ms total)
T1250 011:792 JLINK_ReadReg(PSP)  returns 0x00000000 (0000ms, 0777ms total)
T1250 011:792 JLINK_ReadReg(CFBP)  returns 0x04000000 (0000ms, 0777ms total)
T1250 011:792 JLINK_ReadReg(FPSCR)  returns 0x03000000 (0000ms, 0777ms total)
T1250 011:792 JLINK_ReadReg(FPS0)  returns 0x00000000 (0000ms, 0777ms total)
T1250 011:792 JLINK_ReadReg(FPS1)  returns 0x00000000 (0000ms, 0777ms total)
T1250 011:792 JLINK_ReadReg(FPS2)  returns 0x00000000 (0000ms, 0777ms total)
T1250 011:792 JLINK_ReadReg(FPS3)  returns 0x00000000 (0000ms, 0777ms total)
T1250 011:792 JLINK_ReadReg(FPS4)  returns 0x00000000 (0000ms, 0777ms total)
T1250 011:792 JLINK_ReadReg(FPS5)  returns 0x00000000 (0000ms, 0777ms total)
T1250 011:792 JLINK_ReadReg(FPS6)  returns 0x00000000 (0000ms, 0777ms total)
T1250 011:792 JLINK_ReadReg(FPS7)  returns 0x00000000 (0000ms, 0777ms total)
T1250 011:792 JLINK_ReadReg(FPS8)  returns 0x00000000 (0000ms, 0777ms total)
T1250 011:792 JLINK_ReadReg(FPS9)  returns 0x00000000 (0000ms, 0777ms total)
T1250 011:792 JLINK_ReadReg(FPS10)  returns 0x00000000 (0000ms, 0777ms total)
T1250 011:792 JLINK_ReadReg(FPS11)  returns 0x00000000 (0000ms, 0777ms total)
T1250 011:792 JLINK_ReadReg(FPS12)  returns 0x00000000 (0000ms, 0777ms total)
T1250 011:792 JLINK_ReadReg(FPS13)  returns 0x00000000 (0000ms, 0777ms total)
T1250 011:792 JLINK_ReadReg(FPS14)  returns 0x00000000 (0000ms, 0777ms total)
T1250 011:792 JLINK_ReadReg(FPS15)  returns 0x00000000 (0000ms, 0777ms total)
T1250 011:792 JLINK_ReadReg(FPS16)  returns 0x00000000 (0001ms, 0778ms total)
T1250 011:793 JLINK_ReadReg(FPS17)  returns 0x00000000 (0000ms, 0778ms total)
T1250 011:793 JLINK_ReadReg(FPS18)  returns 0x00000000 (0000ms, 0778ms total)
T1250 011:793 JLINK_ReadReg(FPS19)  returns 0x00000000 (0000ms, 0778ms total)
T1250 011:793 JLINK_ReadReg(FPS20)  returns 0x00000000 (0000ms, 0778ms total)
T1250 011:793 JLINK_ReadReg(FPS21)  returns 0x00000000 (0000ms, 0778ms total)
T1250 011:793 JLINK_ReadReg(FPS22)  returns 0x00000000 (0000ms, 0778ms total)
T1250 011:793 JLINK_ReadReg(FPS23)  returns 0x00000000 (0000ms, 0778ms total)
T1250 011:793 JLINK_ReadReg(FPS24)  returns 0x00000000 (0000ms, 0778ms total)
T1250 011:793 JLINK_ReadReg(FPS25)  returns 0x00000000 (0000ms, 0778ms total)
T1250 011:793 JLINK_ReadReg(FPS26)  returns 0x00000000 (0000ms, 0778ms total)
T1250 011:793 JLINK_ReadReg(FPS27)  returns 0x00000000 (0000ms, 0778ms total)
T1250 011:793 JLINK_ReadReg(FPS28)  returns 0x00000000 (0000ms, 0778ms total)
T1250 011:793 JLINK_ReadReg(FPS29)  returns 0x00000000 (0000ms, 0778ms total)
T1250 011:793 JLINK_ReadReg(FPS30)  returns 0x00000000 (0000ms, 0778ms total)
T1250 011:793 JLINK_ReadReg(FPS31)  returns 0x00000000 (0000ms, 0778ms total)
T0FFC 011:793 JLINK_ReadMem (0x2000068C, 0x0004 Bytes, ...) -- Read from C cache (4 bytes @ 0x2000068C) - Data: 17 02 00 08  returns 0x00 (0000ms, 0778ms total)
T0FFC 011:793 JLINK_ReadMem (0x20000000, 0x0004 Bytes, ...) -- Read from C cache (4 bytes @ 0x20000000) - Data: 00 00 00 00  returns 0x00 (0000ms, 0778ms total)
T0FFC 011:793 JLINK_ReadMem (0x20000004, 0x0002 Bytes, ...) -- Read from C cache (2 bytes @ 0x20000004) - Data: 00 00  returns 0x00 (0000ms, 0778ms total)
T0FFC 011:793 JLINK_ReadMem (0x20000008, 0x0004 Bytes, ...) -- Read from C cache (4 bytes @ 0x20000008) - Data: 00 00 00 00  returns 0x00 (0000ms, 0778ms total)
T0FFC 011:793 JLINK_ReadMemU32(0xE0001004, 0x0001 Items, ...) - Data: F7 3A 00 00  returns 0x01 (0000ms, 0778ms total)
T0FFC 011:797 JLINK_ReadMem (0x08000430, 0x003C Bytes, ...) -- Read from C cache (60 bytes @ 0x08000430) - Data: 2D E9 F0 43 4F F0 78 08 01 25 02 26 FF 27 AF 1B ...  returns 0x00 (0000ms, 0778ms total)
T1250 012:206 JLINK_Step() -- Read from C cache (2 bytes @ 0x0800043A) -- Simulated  returns 0x00 (0000ms, 0778ms total)
T1250 012:206 JLINK_ReadReg(R15 (PC))  returns 0x0800043C (0000ms, 0778ms total)
T1250 012:206 JLINK_ReadReg(XPSR)  returns 0x21000000 (0000ms, 0778ms total)
T1250 012:206 JLINK_ReadReg(R0)  returns 0x20000090 (0000ms, 0778ms total)
T1250 012:206 JLINK_ReadReg(R1)  returns 0x20000290 (0000ms, 0778ms total)
T1250 012:206 JLINK_ReadReg(R2)  returns 0x20000290 (0000ms, 0778ms total)
T1250 012:206 JLINK_ReadReg(R3)  returns 0x20000290 (0000ms, 0778ms total)
T1250 012:206 JLINK_ReadReg(R4)  returns 0x00000000 (0000ms, 0778ms total)
T1250 012:206 JLINK_ReadReg(R5)  returns 0x00000001 (0000ms, 0778ms total)
T1250 012:206 JLINK_ReadReg(R6)  returns 0x00000002 (0000ms, 0778ms total)
T1250 012:206 JLINK_ReadReg(R7)  returns 0x00000000 (0000ms, 0778ms total)
T1250 012:206 JLINK_ReadReg(R8)  returns 0x00000078 (0000ms, 0778ms total)
T1250 012:206 JLINK_ReadReg(R9)  returns 0x00000000 (0000ms, 0778ms total)
T1250 012:206 JLINK_ReadReg(R10)  returns 0x0800052C (0000ms, 0778ms total)
T1250 012:206 JLINK_ReadReg(R11)  returns 0x00000000 (0000ms, 0778ms total)
T1250 012:206 JLINK_ReadReg(R12)  returns 0x2000006C (0000ms, 0778ms total)
T1250 012:206 JLINK_ReadReg(R13 (SP))  returns 0x20000674 (0000ms, 0778ms total)
T1250 012:206 JLINK_ReadReg(R14)  returns 0x08000217 (0000ms, 0778ms total)
T1250 012:206 JLINK_ReadReg(R15 (PC))  returns 0x0800043C (0000ms, 0778ms total)
T1250 012:206 JLINK_ReadReg(XPSR)  returns 0x21000000 (0000ms, 0778ms total)
T1250 012:206 JLINK_ReadReg(MSP)  returns 0x20000674 (0000ms, 0778ms total)
T1250 012:206 JLINK_ReadReg(PSP)  returns 0x00000000 (0000ms, 0778ms total)
T1250 012:206 JLINK_ReadReg(CFBP)  returns 0x04000000 (0000ms, 0778ms total)
T1250 012:206 JLINK_ReadReg(FPSCR)  returns 0x03000000 (0000ms, 0778ms total)
T1250 012:206 JLINK_ReadReg(FPS0)  returns 0x00000000 (0000ms, 0778ms total)
T1250 012:206 JLINK_ReadReg(FPS1)  returns 0x00000000 (0000ms, 0778ms total)
T1250 012:206 JLINK_ReadReg(FPS2)  returns 0x00000000 (0000ms, 0778ms total)
T1250 012:206 JLINK_ReadReg(FPS3)  returns 0x00000000 (0000ms, 0778ms total)
T1250 012:206 JLINK_ReadReg(FPS4)  returns 0x00000000 (0000ms, 0778ms total)
T1250 012:206 JLINK_ReadReg(FPS5)  returns 0x00000000 (0000ms, 0778ms total)
T1250 012:206 JLINK_ReadReg(FPS6)  returns 0x00000000 (0000ms, 0778ms total)
T1250 012:206 JLINK_ReadReg(FPS7)  returns 0x00000000 (0000ms, 0778ms total)
T1250 012:206 JLINK_ReadReg(FPS8)  returns 0x00000000 (0000ms, 0778ms total)
T1250 012:206 JLINK_ReadReg(FPS9)  returns 0x00000000 (0000ms, 0778ms total)
T1250 012:206 JLINK_ReadReg(FPS10)  returns 0x00000000 (0000ms, 0778ms total)
T1250 012:206 JLINK_ReadReg(FPS11)  returns 0x00000000 (0000ms, 0778ms total)
T1250 012:206 JLINK_ReadReg(FPS12)  returns 0x00000000 (0000ms, 0778ms total)
T1250 012:206 JLINK_ReadReg(FPS13)  returns 0x00000000 (0000ms, 0778ms total)
T1250 012:206 JLINK_ReadReg(FPS14)  returns 0x00000000 (0000ms, 0778ms total)
T1250 012:206 JLINK_ReadReg(FPS15)  returns 0x00000000 (0000ms, 0778ms total)
T1250 012:206 JLINK_ReadReg(FPS16)  returns 0x00000000 (0000ms, 0778ms total)
T1250 012:206 JLINK_ReadReg(FPS17)  returns 0x00000000 (0000ms, 0778ms total)
T1250 012:206 JLINK_ReadReg(FPS18)  returns 0x00000000 (0000ms, 0778ms total)
T1250 012:206 JLINK_ReadReg(FPS19)  returns 0x00000000 (0000ms, 0778ms total)
T1250 012:206 JLINK_ReadReg(FPS20)  returns 0x00000000 (0000ms, 0778ms total)
T1250 012:206 JLINK_ReadReg(FPS21)  returns 0x00000000 (0000ms, 0778ms total)
T1250 012:206 JLINK_ReadReg(FPS22)  returns 0x00000000 (0000ms, 0778ms total)
T1250 012:206 JLINK_ReadReg(FPS23)  returns 0x00000000 (0000ms, 0778ms total)
T1250 012:206 JLINK_ReadReg(FPS24)  returns 0x00000000 (0000ms, 0778ms total)
T1250 012:206 JLINK_ReadReg(FPS25)  returns 0x00000000 (0000ms, 0778ms total)
T1250 012:206 JLINK_ReadReg(FPS26)  returns 0x00000000 (0000ms, 0778ms total)
T1250 012:206 JLINK_ReadReg(FPS27)  returns 0x00000000 (0000ms, 0778ms total)
T1250 012:206 JLINK_ReadReg(FPS28)  returns 0x00000000 (0000ms, 0778ms total)
T1250 012:206 JLINK_ReadReg(FPS29)  returns 0x00000000 (0000ms, 0778ms total)
T1250 012:206 JLINK_ReadReg(FPS30)  returns 0x00000000 (0000ms, 0778ms total)
T1250 012:206 JLINK_ReadReg(FPS31)  returns 0x00000000 (0000ms, 0778ms total)
T0FFC 012:207 JLINK_ReadMem (0x2000068C, 0x0004 Bytes, ...) -- Read from C cache (4 bytes @ 0x2000068C) - Data: 17 02 00 08  returns 0x00 (0000ms, 0778ms total)
T0FFC 012:207 JLINK_ReadMem (0x20000000, 0x0004 Bytes, ...) -- Read from C cache (4 bytes @ 0x20000000) - Data: 00 00 00 00  returns 0x00 (0000ms, 0778ms total)
T0FFC 012:207 JLINK_ReadMem (0x20000004, 0x0002 Bytes, ...) -- Read from C cache (2 bytes @ 0x20000004) - Data: 00 00  returns 0x00 (0000ms, 0778ms total)
T0FFC 012:207 JLINK_ReadMem (0x20000008, 0x0004 Bytes, ...) -- Read from C cache (4 bytes @ 0x20000008) - Data: 00 00 00 00  returns 0x00 (0000ms, 0778ms total)
T0FFC 012:207 JLINK_ReadMemU32(0xE0001004, 0x0001 Items, ...) - Data: F7 3A 00 00  returns 0x01 (0000ms, 0778ms total)
T0FFC 012:208 JLINK_ReadMem (0x0800043E, 0x0002 Bytes, ...) -- Read from C cache (2 bytes @ 0x0800043E) - Data: AF 1B  returns 0x00 (0000ms, 0778ms total)
T0FFC 012:208 JLINK_ReadMem (0x08000440, 0x003C Bytes, ...) -- Read from C cache (60 bytes @ 0x08000440) - Data: B9 46 A8 1E 24 49 08 60 08 46 00 68 40 1E 08 60 ...  returns 0x00 (0000ms, 0778ms total)
T0FFC 012:212 JLINK_ReadMem (0x08000430, 0x003C Bytes, ...) -- Read from C cache (60 bytes @ 0x08000430) - Data: 2D E9 F0 43 4F F0 78 08 01 25 02 26 FF 27 AF 1B ...  returns 0x00 (0000ms, 0778ms total)
T1250 012:557 JLINK_Step() -- Read from C cache (2 bytes @ 0x0800043C) -- Simulated  returns 0x00 (0002ms, 0780ms total)
T1250 012:559 JLINK_ReadReg(R15 (PC))  returns 0x0800043E (0000ms, 0780ms total)
T1250 012:559 JLINK_ReadReg(XPSR)  returns 0x21000000 (0000ms, 0780ms total)
T1250 012:559 JLINK_ReadReg(R0)  returns 0x20000090 (0000ms, 0780ms total)
T1250 012:559 JLINK_ReadReg(R1)  returns 0x20000290 (0000ms, 0780ms total)
T1250 012:559 JLINK_ReadReg(R2)  returns 0x20000290 (0000ms, 0780ms total)
T1250 012:559 JLINK_ReadReg(R3)  returns 0x20000290 (0000ms, 0780ms total)
T1250 012:559 JLINK_ReadReg(R4)  returns 0x00000000 (0000ms, 0780ms total)
T1250 012:559 JLINK_ReadReg(R5)  returns 0x00000001 (0000ms, 0780ms total)
T1250 012:559 JLINK_ReadReg(R6)  returns 0x00000002 (0000ms, 0780ms total)
T1250 012:559 JLINK_ReadReg(R7)  returns 0x000000FF (0000ms, 0780ms total)
T1250 012:559 JLINK_ReadReg(R8)  returns 0x00000078 (0000ms, 0780ms total)
T1250 012:559 JLINK_ReadReg(R9)  returns 0x00000000 (0000ms, 0780ms total)
T1250 012:559 JLINK_ReadReg(R10)  returns 0x0800052C (0000ms, 0780ms total)
T1250 012:559 JLINK_ReadReg(R11)  returns 0x00000000 (0000ms, 0780ms total)
T1250 012:559 JLINK_ReadReg(R12)  returns 0x2000006C (0000ms, 0780ms total)
T1250 012:559 JLINK_ReadReg(R13 (SP))  returns 0x20000674 (0000ms, 0780ms total)
T1250 012:559 JLINK_ReadReg(R14)  returns 0x08000217 (0000ms, 0780ms total)
T1250 012:559 JLINK_ReadReg(R15 (PC))  returns 0x0800043E (0000ms, 0780ms total)
T1250 012:559 JLINK_ReadReg(XPSR)  returns 0x21000000 (0000ms, 0780ms total)
T1250 012:559 JLINK_ReadReg(MSP)  returns 0x20000674 (0000ms, 0780ms total)
T1250 012:559 JLINK_ReadReg(PSP)  returns 0x00000000 (0000ms, 0780ms total)
T1250 012:559 JLINK_ReadReg(CFBP)  returns 0x04000000 (0000ms, 0780ms total)
T1250 012:559 JLINK_ReadReg(FPSCR)  returns 0x03000000 (0000ms, 0780ms total)
T1250 012:559 JLINK_ReadReg(FPS0)  returns 0x00000000 (0000ms, 0780ms total)
T1250 012:559 JLINK_ReadReg(FPS1)  returns 0x00000000 (0000ms, 0780ms total)
T1250 012:559 JLINK_ReadReg(FPS2)  returns 0x00000000 (0000ms, 0780ms total)
T1250 012:559 JLINK_ReadReg(FPS3)  returns 0x00000000 (0000ms, 0780ms total)
T1250 012:559 JLINK_ReadReg(FPS4)  returns 0x00000000 (0000ms, 0780ms total)
T1250 012:559 JLINK_ReadReg(FPS5)  returns 0x00000000 (0000ms, 0780ms total)
T1250 012:559 JLINK_ReadReg(FPS6)  returns 0x00000000 (0000ms, 0780ms total)
T1250 012:559 JLINK_ReadReg(FPS7)  returns 0x00000000 (0000ms, 0780ms total)
T1250 012:559 JLINK_ReadReg(FPS8)  returns 0x00000000 (0000ms, 0780ms total)
T1250 012:559 JLINK_ReadReg(FPS9)  returns 0x00000000 (0000ms, 0780ms total)
T1250 012:559 JLINK_ReadReg(FPS10)  returns 0x00000000 (0000ms, 0780ms total)
T1250 012:559 JLINK_ReadReg(FPS11)  returns 0x00000000 (0000ms, 0780ms total)
T1250 012:559 JLINK_ReadReg(FPS12)  returns 0x00000000 (0000ms, 0780ms total)
T1250 012:559 JLINK_ReadReg(FPS13)  returns 0x00000000 (0000ms, 0780ms total)
T1250 012:559 JLINK_ReadReg(FPS14)  returns 0x00000000 (0000ms, 0780ms total)
T1250 012:559 JLINK_ReadReg(FPS15)  returns 0x00000000 (0000ms, 0780ms total)
T1250 012:559 JLINK_ReadReg(FPS16)  returns 0x00000000 (0000ms, 0780ms total)
T1250 012:559 JLINK_ReadReg(FPS17)  returns 0x00000000 (0000ms, 0780ms total)
T1250 012:559 JLINK_ReadReg(FPS18)  returns 0x00000000 (0000ms, 0780ms total)
T1250 012:559 JLINK_ReadReg(FPS19)  returns 0x00000000 (0000ms, 0780ms total)
T1250 012:559 JLINK_ReadReg(FPS20)  returns 0x00000000 (0000ms, 0780ms total)
T1250 012:559 JLINK_ReadReg(FPS21)  returns 0x00000000 (0000ms, 0780ms total)
T1250 012:559 JLINK_ReadReg(FPS22)  returns 0x00000000 (0000ms, 0780ms total)
T1250 012:559 JLINK_ReadReg(FPS23)  returns 0x00000000 (0000ms, 0780ms total)
T1250 012:559 JLINK_ReadReg(FPS24)  returns 0x00000000 (0000ms, 0780ms total)
T1250 012:559 JLINK_ReadReg(FPS25)  returns 0x00000000 (0000ms, 0780ms total)
T1250 012:559 JLINK_ReadReg(FPS26)  returns 0x00000000 (0000ms, 0780ms total)
T1250 012:559 JLINK_ReadReg(FPS27)  returns 0x00000000 (0000ms, 0780ms total)
T1250 012:559 JLINK_ReadReg(FPS28)  returns 0x00000000 (0000ms, 0780ms total)
T1250 012:559 JLINK_ReadReg(FPS29)  returns 0x00000000 (0000ms, 0780ms total)
T1250 012:559 JLINK_ReadReg(FPS30)  returns 0x00000000 (0000ms, 0780ms total)
T1250 012:559 JLINK_ReadReg(FPS31)  returns 0x00000000 (0000ms, 0780ms total)
T0FFC 012:560 JLINK_ReadMem (0x2000068C, 0x0004 Bytes, ...) -- Read from C cache (4 bytes @ 0x2000068C) - Data: 17 02 00 08  returns 0x00 (0000ms, 0780ms total)
T0FFC 012:560 JLINK_ReadMem (0x20000000, 0x0004 Bytes, ...) -- Read from C cache (4 bytes @ 0x20000000) - Data: 00 00 00 00  returns 0x00 (0000ms, 0780ms total)
T0FFC 012:560 JLINK_ReadMem (0x20000004, 0x0002 Bytes, ...) -- Read from C cache (2 bytes @ 0x20000004) - Data: 00 00  returns 0x00 (0000ms, 0780ms total)
T0FFC 012:560 JLINK_ReadMem (0x20000008, 0x0004 Bytes, ...) -- Read from C cache (4 bytes @ 0x20000008) - Data: 00 00 00 00  returns 0x00 (0000ms, 0780ms total)
T0FFC 012:560 JLINK_ReadMemU32(0xE0001004, 0x0001 Items, ...) - Data: F7 3A 00 00  returns 0x01 (0000ms, 0780ms total)
T0FFC 012:561 JLINK_ReadMem (0x0800043E, 0x0002 Bytes, ...) -- Read from C cache (2 bytes @ 0x0800043E) - Data: AF 1B  returns 0x00 (0000ms, 0780ms total)
T0FFC 012:561 JLINK_ReadMem (0x08000440, 0x003C Bytes, ...) -- Read from C cache (60 bytes @ 0x08000440) - Data: B9 46 A8 1E 24 49 08 60 08 46 00 68 40 1E 08 60 ...  returns 0x00 (0000ms, 0780ms total)
T0FFC 012:567 JLINK_ReadMem (0x08000430, 0x003C Bytes, ...) -- Read from C cache (60 bytes @ 0x08000430) - Data: 2D E9 F0 43 4F F0 78 08 01 25 02 26 FF 27 AF 1B ...  returns 0x00 (0000ms, 0780ms total)
T1250 012:814 JLINK_Step() -- Read from C cache (2 bytes @ 0x0800043E) -- Simulated  returns 0x00 (0001ms, 0781ms total)
T1250 012:815 JLINK_ReadReg(R15 (PC))  returns 0x08000440 (0000ms, 0781ms total)
T1250 012:815 JLINK_ReadReg(XPSR)  returns 0x81000000 (0000ms, 0781ms total)
T1250 012:815 JLINK_ReadReg(R0)  returns 0x20000090 (0000ms, 0781ms total)
T1250 012:815 JLINK_ReadReg(R1)  returns 0x20000290 (0000ms, 0781ms total)
T1250 012:815 JLINK_ReadReg(R2)  returns 0x20000290 (0000ms, 0781ms total)
T1250 012:815 JLINK_ReadReg(R3)  returns 0x20000290 (0000ms, 0781ms total)
T1250 012:815 JLINK_ReadReg(R4)  returns 0x00000000 (0000ms, 0781ms total)
T1250 012:815 JLINK_ReadReg(R5)  returns 0x00000001 (0000ms, 0781ms total)
T1250 012:815 JLINK_ReadReg(R6)  returns 0x00000002 (0000ms, 0781ms total)
T1250 012:815 JLINK_ReadReg(R7)  returns 0xFFFFFFFF (0000ms, 0781ms total)
T1250 012:815 JLINK_ReadReg(R8)  returns 0x00000078 (0000ms, 0781ms total)
T1250 012:815 JLINK_ReadReg(R9)  returns 0x00000000 (0000ms, 0781ms total)
T1250 012:815 JLINK_ReadReg(R10)  returns 0x0800052C (0000ms, 0781ms total)
T1250 012:815 JLINK_ReadReg(R11)  returns 0x00000000 (0000ms, 0781ms total)
T1250 012:815 JLINK_ReadReg(R12)  returns 0x2000006C (0000ms, 0781ms total)
T1250 012:815 JLINK_ReadReg(R13 (SP))  returns 0x20000674 (0000ms, 0781ms total)
T1250 012:815 JLINK_ReadReg(R14)  returns 0x08000217 (0000ms, 0781ms total)
T1250 012:815 JLINK_ReadReg(R15 (PC))  returns 0x08000440 (0000ms, 0781ms total)
T1250 012:815 JLINK_ReadReg(XPSR)  returns 0x81000000 (0000ms, 0781ms total)
T1250 012:815 JLINK_ReadReg(MSP)  returns 0x20000674 (0000ms, 0781ms total)
T1250 012:815 JLINK_ReadReg(PSP)  returns 0x00000000 (0000ms, 0781ms total)
T1250 012:815 JLINK_ReadReg(CFBP)  returns 0x04000000 (0000ms, 0781ms total)
